## 暂时记录

```
int net_visca_switch_ptp_func(unsigned char *command, dev_type_e dev,cmd_protocol_e protocol,ptz_return_content_s *add_info)
{
    unsigned char val = command[3];
    visca_info("val:%d",val);

    if (!g_ptp_reg_initialized) {
        ptp_read_reg(0x36, 0x36, 0x8d, &g_ptp_reg_default.cphy_0x36_0x8d);
        ptp_read_reg(0x36, 0x38, 0x2a, &g_ptp_reg_default.cphy_0x38_0x2a);
        ptp_read_reg(0x36, 0x38, 0x2e, &g_ptp_reg_default.cphy_0x38_0x2e);
        ptp_read_reg(0x10, 0x36, 0x8d, &g_ptp_reg_default.dphy_0x10_0x36_0x8d);
        ptp_read_reg(0x10, 0x38, 0x2a, &g_ptp_reg_default.dphy_0x10_0x38_0x2a);
        ptp_read_reg(0x10, 0x38, 0x2e, &g_ptp_reg_default.dphy_0x10_0x38_0x2e);
        g_ptp_reg_initialized = 1;
        visca_info("PTP default regs saved");
    }
    //还原主从模式差异寄存器
    char cmd[128];
    sprintf(cmd, "i2ctransfer -f -y 0 w3@0x36 0x36 0x8d 0x%x", g_ptp_reg_default.cphy_0x36_0x8d);
    system(cmd);
    sprintf(cmd, "i2ctransfer -f -y 0 w3@0x36 0x38 0x2a 0x%x", g_ptp_reg_default.cphy_0x38_0x2a);
    system(cmd);
    sprintf(cmd, "i2ctransfer -f -y 0 w3@0x36 0x38 0x2e 0x%x", g_ptp_reg_default.cphy_0x38_0x2e);
    system(cmd);
    sprintf(cmd, "i2ctransfer -f -y 0 w3@0x10 0x36 0x8d 0x%x", g_ptp_reg_default.dphy_0x10_0x36_0x8d);
    system(cmd);
    sprintf(cmd, "i2ctransfer -f -y 0 w3@0x10 0x38 0x2a 0x%x", g_ptp_reg_default.dphy_0x10_0x38_0x2a);
    system(cmd);
    sprintf(cmd, "i2ctransfer -f -y 0 w3@0x10 0x38 0x2e 0x%x", g_ptp_reg_default.dphy_0x10_0x38_0x2e);
    system(cmd);

	if(val==0){
		system("killall ptp4l;killall phc2sys");
        //切成主模式
        system("echo s > /dev/hrtimer_test");
        //close_up  CPHY
        system("i2ctransfer -f -y 0 w3@0x36 0x01 0x00 0x00");

        system("i2ctransfer -f -y 0 w3@0x36 0x30 0x02 0x08");
        system("i2ctransfer -f -y 0 w3@0x36 0x30 0x08 0x00");
        //system("i2ctransfer -f -y 0 w3@0x36 0x38 0x2e 0x41");
        system("i2ctransfer -f -y 0 w3@0x36 0x38 0x2e 0x00");
        system("i2ctransfer -f -y 0 w3@0x36 0x36 0x8d 0x10");

        #if FRX
        system("i2ctransfer -f -y 0 w3@0x36 0x38 0x44 0x00");
        system("i2ctransfer -f -y 0 w3@0x36 0x38 0x5c 0x00");
        system("i2ctransfer -f -y 0 w3@0x36 0x38 0x5d 0x02");
        system("i2ctransfer -f -y 0 w3@0x36 0x38 0x5e 0x00");
        system("i2ctransfer -f -y 0 w3@0x36 0x38 0x5f 0x01");
        system("i2ctransfer -f -y 0 w3@0x36 0x38 0x63 0x00");
        system("i2ctransfer -f -y 0 w3@0x36 0x38 0x64 0x04");
        #else
        system("i2ctransfer -f -y 0 w3@0x36 0x38 0x44 0x00");
        system("i2ctransfer -f -y 0 w3@0x36 0x38 0x5c 0x09");
        system("i2ctransfer -f -y 0 w3@0x36 0x38 0x5d 0xbc");
        system("i2ctransfer -f -y 0 w3@0x36 0x38 0x5e 0x01");
        system("i2ctransfer -f -y 0 w3@0x36 0x38 0x5f 0xf4");
        system("i2ctransfer -f -y 0 w3@0x36 0x38 0x63 0x00");
        system("i2ctransfer -f -y 0 w3@0x36 0x38 0x64 0x04");
        #endif
        system("i2ctransfer -f -y 0 w3@0x36 0x01 0x00 0x01");

        //panorama  DPHY
        system("i2ctransfer -f -y 0 w3@0x10 0x01 0x00 0x00");
        system("i2ctransfer -f -y 0 w3@0x10 0x30 0x02 0x08");
        system("i2ctransfer -f -y 0 w3@0x10 0x30 0x08 0x00");
        //system("i2ctransfer -f -y 0 w3@0x10 0x38 0x2e 0x41");
        system("i2ctransfer -f -y 0 w3@0x10 0x38 0x2e 0x00");
        system("i2ctransfer -f -y 0 w3@0x10 0x36 0x8d 0x10");
        system("i2ctransfer -f -y 0 w3@0x10 0x38 0x44 0x00");
        #if FRX
        system("i2ctransfer -f -y 0 w3@0x10 0x38 0x5c 0x00");
        system("i2ctransfer -f -y 0 w3@0x10 0x38 0x5d 0x02");
        system("i2ctransfer -f -y 0 w3@0x10 0x38 0x5e 0x00");
        system("i2ctransfer -f -y 0 w3@0x10 0x38 0x5f 0x01");
        system("i2ctransfer -f -y 0 w3@0x10 0x38 0x63 0x00");
        system("i2ctransfer -f -y 0 w3@0x10 0x38 0x64 0x04");
        #else 
        system("i2ctransfer -f -y 0 w3@0x10 0x38 0x5c 0x09");
        system("i2ctransfer -f -y 0 w3@0x10 0x38 0x5d 0xbc");
        system("i2ctransfer -f -y 0 w3@0x10 0x38 0x5e 0x01");
        system("i2ctransfer -f -y 0 w3@0x10 0x38 0x5f 0xf4");
        system("i2ctransfer -f -y 0 w3@0x10 0x38 0x63 0x00");
        system("i2ctransfer -f -y 0 w3@0x10 0x38 0x64 0x04");
        #endif
        system("i2ctransfer -f -y 0 w3@0x10 0x01 0x00 0x01");
	}else{
		system("ptp4l -i eth0 -m -H -s > /dev/null &");
		system("phc2sys -s /dev/ptp0  -r -w  > /dev/null &");
        //先发脉冲，然后再切从模式，目前还是默认30fps，后面再根据需要调整
        system("echo 1 > /dev/hrtimer_test");
        //close_up  CPHY
        system("i2ctransfer -f -y 0 w3@0x36 0x01 0x00 0x00");

        system("i2ctransfer -f -y 0 w3@0x36 0x30 0x02 0x00");
        system("i2ctransfer -f -y 0 w3@0x36 0x30 0x08 0x00");
        system("i2ctransfer -f -y 0 w3@0x36 0x30 0x09 0x00");
        //system("i2ctransfer -f -y 0 w3@0x36 0x38 0x65 0x60");  //不给脉冲是否出图
        system("i2ctransfer -f -y 0 w3@0x36 0x38 0x65 0x00");    //不给脉冲也出图
        #if FRX
        system("i2ctransfer -f -y 0 w3@0x36 0x38 0x2a 0xbb");
        system("i2ctransfer -f -y 0 w3@0x36 0x38 0x34 0x14");
        system("i2ctransfer -f -y 0 w3@0x36 0x38 0x43 0x00");
        system("i2ctransfer -f -y 0 w3@0x36 0x38 0x35 0x00");
        system("i2ctransfer -f -y 0 w3@0x36 0x38 0x36 0x10");
        #else
        system("i2ctransfer -f -y 0 w3@0x36 0x38 0x2a 0x9b");
        system("i2ctransfer -f -y 0 w3@0x36 0x38 0x34 0x0a");
        system("i2ctransfer -f -y 0 w3@0x36 0x38 0x43 0x00");
        system("i2ctransfer -f -y 0 w3@0x36 0x38 0x35 0x00");
        system("i2ctransfer -f -y 0 w3@0x36 0x38 0x36 0x10");
        #endif
        system("i2ctransfer -f -y 0 w3@0x36 0x01 0x00 0x01");

        //panorama  DPHY
        system("i2ctransfer -f -y 0 w3@0x10 0x01 0x00 0x00");

        system("i2ctransfer -f -y 0 w3@0x10 0x30 0x02 0x00");
        system("i2ctransfer -f -y 0 w3@0x10 0x30 0x08 0x00");
        system("i2ctransfer -f -y 0 w3@0x10 0x30 0x09 0x00");
        //system("i2ctransfer -f -y 0 w3@0x10 0x38 0x65 0x60");  //不给脉冲不出图
        system("i2ctransfer -f -y 0 w3@0x10 0x38 0x65 0x00");    //不给脉冲也出图
        #if FRX
        system("i2ctransfer -f -y 0 w3@0x10 0x38 0x2a 0xbb");
        system("i2ctransfer -f -y 0 w3@0x10 0x38 0x34 0x14");
        system("i2ctransfer -f -y 0 w3@0x10 0x38 0x43 0x00");
        system("i2ctransfer -f -y 0 w3@0x10 0x38 0x35 0x00");
        system("i2ctransfer -f -y 0 w3@0x10 0x38 0x36 0x10");
        #else
        system("i2ctransfer -f -y 0 w3@0x10 0x38 0x2a 0x9b");
        system("i2ctransfer -f -y 0 w3@0x10 0x38 0x34 0x0a");
        system("i2ctransfer -f -y 0 w3@0x10 0x38 0x43 0x00");
        system("i2ctransfer -f -y 0 w3@0x10 0x38 0x35 0x00");
        system("i2ctransfer -f -y 0 w3@0x10 0x38 0x36 0x10"); 
        #endif
        system("i2ctransfer -f -y 0 w3@0x10 0x01 0x00 0x01");
	}

    return EXECUTE_COMPLETE;
}
```